Time (ms)	V_G (V)	I_DS (A)	I_DS error(A)	I_G (A)	I_G error(A)
0.0000000000	0.0000000000	-0.0000000041	nan	0.0000000041	nan
346.2007045746	0.0000000000	-0.0000000041	nan	0.0000000041	nan
691.4908885956	0.0000000000	-0.0000000041	nan	0.0000000043	nan
1042.1369075775	-0.8000000000	0.0000001007	nan	-0.0000001282	nan
1389.3947601318	-0.8000000000	0.0000000143	nan	-0.0000000963	nan
1738.2478713989	-0.8000000000	-0.0000000687	nan	-0.0000000998	nan
2085.9084129333	-0.8000000000	-0.0000002954	nan	-0.0000001118	nan
2433.5741996765	-0.8000000000	-0.0000008449	nan	-0.0000001533	nan
2907.2010517120	-0.8000000000	-0.0000036066	nan	-0.0000001377	nan
3254.2846202850	-0.8000000000	-0.0000051156	nan	-0.0000001741	nan
3601.3813018799	-0.8000000000	-0.0000076663	nan	-0.0000002093	nan
4070.0562000275	-0.8000000000	-0.0000133382	nan	-0.0000002609	nan
4415.6935214996	-0.8000000000	-0.0000188022	nan	-0.0000003035	nan
4760.5807781219	-0.8000000000	-0.0000256933	nan	-0.0000003525	nan
5105.6954860687	-0.8000000000	-0.0000338772	nan	-0.0000004067	nan
5451.0746002197	-0.8000000000	-0.0000434282	nan	-0.0000004500	nan
5796.1521148682	-0.8000000000	-0.0000542390	nan	-0.0000004777	nan
6141.0501003265	-0.8000000000	-0.0000660837	nan	-0.0000004733	nan
6486.9105815887	-0.8000000000	-0.0000790575	nan	-0.0000004512	nan
6832.0977687836	-0.8000000000	-0.0000931247	nan	-0.0000004291	nan
7292.7258014679	-0.8000000000	-0.0001131019	nan	-0.0000003949	nan
7646.0347175598	-0.8000000000	-0.0001285190	nan	-0.0000003670	nan
7990.4179573059	-0.8000000000	-0.0001444736	nan	-0.0000003366	nan
8343.6343669891	-0.8000000000	-0.0001608460	nan	-0.0000003002	nan
8688.3177757263	-0.8000000000	-0.0001776193	nan	-0.0000002660	nan
9032.9959392548	-0.8000000000	-0.0001941798	nan	-0.0000002357	nan
9377.9895305634	-0.8000000000	-0.0002107879	nan	-0.0000002099	nan
9730.7004928589	-0.8000000000	-0.0002274392	nan	-0.0000001881	nan
10083.4550857544	-0.8000000000	-0.0002442144	nan	-0.0000001711	nan
10428.8687705994	-0.8000000000	-0.0002608066	nan	-0.0000001553	nan
10775.0079631805	-0.8000000000	-0.0002766583	nan	-0.0000001423	nan
11120.2330589294	-0.8000000000	-0.0002922224	nan	-0.0000001317	nan
11465.8865928650	-0.8000000000	-0.0003075249	nan	-0.0000001227	nan
11811.0656738281	-0.8000000000	-0.0003227041	nan	-0.0000001147	nan
12156.1920642853	-0.8000000000	-0.0003375004	nan	-0.0000001068	nan
12501.7070770264	-0.8000000000	-0.0003510919	nan	-0.0000000996	nan
12854.6271324158	-0.8000000000	-0.0003652071	nan	-0.0000000944	nan
13200.9079456329	-0.8000000000	-0.0003787499	nan	-0.0000000895	nan
13554.5151233673	-0.8000000000	-0.0003916914	nan	-0.0000000851	nan
13899.4216918945	-0.8000000000	-0.0004046490	nan	-0.0000000808	nan
14244.9438571930	-0.8000000000	-0.0004162266	nan	-0.0000000770	nan
14590.2259349823	-0.8000000000	-0.0004277189	nan	-0.0000000731	nan
14935.9798431396	-0.8000000000	-0.0004390503	nan	-0.0000000704	nan
15280.9853553772	-0.8000000000	-0.0004496846	nan	-0.0000000670	nan
15626.0583400726	-0.8000000000	-0.0004600568	nan	-0.0000000647	nan
15972.3308086395	-0.8000000000	-0.0004699129	nan	-0.0000000617	nan
16325.5352973938	-0.8000000000	-0.0004793186	nan	-0.0000000606	nan
16679.4195175171	-0.8000000000	-0.0004892761	nan	-0.0000000579	nan
17024.5625972748	-0.8000000000	-0.0004981202	nan	-0.0000000555	nan
17376.6887187958	-0.8000000000	-0.0005060824	nan	-0.0000000543	nan
17721.2569713593	-0.8000000000	-0.0005150236	nan	-0.0000000532	nan
18074.2330551147	-0.8000000000	-0.0005222232	nan	-0.0000000509	nan
18419.4078445435	-0.8000000000	-0.0005300775	nan	-0.0000000494	nan
18765.3076648712	-0.8000000000	-0.0005370437	nan	-0.0000000484	nan
19110.2087497711	-0.8000000000	-0.0005434263	nan	-0.0000000464	nan
19462.3620510101	-0.8000000000	-0.0005508425	nan	-0.0000000461	nan
19807.5680732727	-0.8000000000	-0.0005568525	nan	-0.0000000441	nan
20153.1972885132	-0.8000000000	-0.0005631251	nan	-0.0000000436	nan
20498.1579780579	-0.8000000000	-0.0005686866	nan	-0.0000000426	nan
20844.6373939514	-0.8000000000	-0.0005744132	nan	-0.0000000414	nan
21199.2065906525	-0.8000000000	-0.0005804322	nan	-0.0000000404	nan
21544.9352264404	-0.8000000000	-0.0005856468	nan	-0.0000000398	nan
21898.1330394745	-0.8000000000	-0.0005899572	nan	-0.0000000389	nan
22251.0843276978	-0.8000000000	-0.0005949924	nan	-0.0000000377	nan
22596.2212085724	-0.8000000000	-0.0005998877	nan	-0.0000000374	nan
22949.7907161713	-0.8000000000	-0.0006040997	nan	-0.0000000366	nan
23303.0900955200	-0.8000000000	-0.0006082276	nan	-0.0000000368	nan
23656.5065383911	-0.8000000000	-0.0006128565	nan	-0.0000000354	nan
24001.3029575348	-0.8000000000	-0.0006161625	nan	-0.0000000350	nan
24345.5896377563	-0.8000000000	-0.0006200927	nan	-0.0000000346	nan
24699.7413635254	-0.8000000000	-0.0006233521	nan	-0.0000000332	nan
25045.1195240021	-0.8000000000	-0.0006272302	nan	-0.0000000336	nan
25398.6370563507	-0.8000000000	-0.0006303856	nan	-0.0000000325	nan
25743.7810897827	-0.8000000000	-0.0006337926	nan	-0.0000000325	nan
26088.7954235077	-0.8000000000	-0.0006366022	nan	-0.0000000321	nan
26438.2598400116	-0.8000000000	-0.0006396749	nan	-0.0000000324	nan
26784.0609550476	-0.8000000000	-0.0006420898	nan	-0.0000000312	nan
27130.0415992737	-0.8000000000	-0.0006450229	nan	-0.0000000320	nan
27475.0876426697	-0.8000000000	-0.0006481764	nan	-0.0000000307	nan
27827.7289867401	-0.8000000000	-0.0006506342	nan	-0.0000000303	nan
28172.8556156158	-0.8000000000	-0.0006517451	nan	-0.0000000301	nan
28518.7177658081	-0.8000000000	-0.0006547059	nan	-0.0000000293	nan
28863.9249801636	-0.8000000000	-0.0006564888	nan	-0.0000000293	nan
29209.3904018402	-0.8000000000	-0.0006593580	nan	-0.0000000291	nan
29555.2949905396	-0.8000000000	-0.0006613364	nan	-0.0000000292	nan
29900.3434181213	-0.8000000000	-0.0006633474	nan	-0.0000000281	nan
30244.8863983154	-0.8000000000	-0.0006660958	nan	-0.0000000284	nan
30601.1686325073	-0.8000000000	-0.0006675741	nan	-0.0000000276	nan
30946.9170570374	-0.8000000000	-0.0006697929	nan	-0.0000000275	nan
31292.8140163422	-0.8000000000	-0.0006703981	nan	-0.0000000280	nan
31637.2838020325	-0.8000000000	-0.0006718941	nan	-0.0000000269	nan
31983.2472801208	-0.8000000000	-0.0006737001	nan	-0.0000000278	nan
32328.4628391266	-0.8000000000	-0.0006751119	nan	-0.0000000265	nan
32681.6256046295	-0.8000000000	-0.0006770017	nan	-0.0000000267	nan
33027.3482799530	-0.8000000000	-0.0006784895	nan	-0.0000000265	nan
33380.7935714722	-0.8000000000	-0.0006795705	nan	-0.0000000267	nan
33725.7096767426	-0.8000000000	-0.0006808459	nan	-0.0000000261	nan
34079.2784690857	-0.8000000000	-0.0006818175	nan	-0.0000000256	nan
34424.6203899384	-0.8000000000	-0.0006838758	nan	-0.0000000262	nan
34769.4215774536	-0.8000000000	-0.0006844154	nan	-0.0000000247	nan
35114.8746013641	-0.8000000000	-0.0006856604	nan	-0.0000000249	nan
35460.0460529327	-0.8000000000	-0.0006877799	nan	-0.0000000250	nan
35813.3587837219	-0.8000000000	-0.0006880946	nan	-0.0000000255	nan
36159.2516899109	-0.8000000000	-0.0006894964	nan	-0.0000000255	nan
36503.9918422699	-0.8000000000	-0.0006897614	nan	-0.0000000242	nan
36849.8446941376	-0.8000000000	-0.0006916057	nan	-0.0000000249	nan
37195.6269741058	-0.8000000000	-0.0006922219	nan	-0.0000000242	nan
37540.5695438385	-0.8000000000	-0.0006929752	nan	-0.0000000249	nan
37885.1280212402	-0.8000000000	-0.0006939836	nan	-0.0000000238	nan
38232.2289943695	-0.8000000000	-0.0006949105	nan	-0.0000000240	nan
38585.1562023163	-0.8000000000	-0.0006957215	nan	-0.0000000241	nan
38937.9990100861	-0.8000000000	-0.0006964363	nan	-0.0000000242	nan
39283.3826541901	-0.8000000000	-0.0006967917	nan	-0.0000000240	nan
39628.6735534668	-0.8000000000	-0.0006975409	nan	-0.0000000242	nan
39982.2540283203	-0.8000000000	-0.0006988968	nan	-0.0000000235	nan
40460.5021476746	0.0000000000	-0.0006726751	nan	0.0000031921	nan
40802.6418685913	0.0000000000	-0.0002006788	nan	0.0000013126	nan
41278.1100273132	0.0000000000	-0.0000438534	nan	0.0000006152	nan
41630.3038597107	0.0000000000	-0.0000102415	nan	0.0000003782	nan
42040.5552387238	0.0000000000	-0.0000028934	nan	0.0000002330	nan
42386.2502574921	0.0000000000	-0.0000011990	nan	0.0000001658	nan
42802.1922111511	0.0000000000	-0.0000004866	nan	0.0000001185	nan
43148.7741470337	0.0000000000	-0.0000002583	nan	0.0000000940	nan
43495.7189559937	0.0000000000	-0.0000001518	nan	0.0000000768	nan
43842.0205116272	0.0000000000	-0.0000000962	nan	0.0000000646	nan
44188.3561611176	0.0000000000	-0.0000000653	nan	0.0000000556	nan
44534.9268913269	0.0000000000	-0.0000000476	nan	0.0000000485	nan
44880.8598518372	0.0000000000	-0.0000000374	nan	0.0000000432	nan
45227.8218269348	0.0000000000	-0.0000000298	nan	0.0000000387	nan
45574.3219852448	0.0000000000	-0.0000000249	nan	0.0000000353	nan
45919.9383258820	0.0000000000	-0.0000000214	nan	0.0000000324	nan
46266.1330699921	0.0000000000	-0.0000000190	nan	0.0000000298	nan
46611.5655899048	0.0000000000	-0.0000000170	nan	0.0000000277	nan
46957.7438831329	0.0000000000	-0.0000000154	nan	0.0000000259	nan
47304.8958778381	0.0000000000	-0.0000000144	nan	0.0000000244	nan
47652.8840065002	0.0000000000	-0.0000000134	nan	0.0000000230	nan
47999.9885559082	0.0000000000	-0.0000000127	nan	0.0000000217	nan
48346.5132713318	0.0000000000	-0.0000000120	nan	0.0000000207	nan
48692.8033828735	0.0000000000	-0.0000000114	nan	0.0000000197	nan
49039.2324924469	0.0000000000	-0.0000000109	nan	0.0000000188	nan
49385.8649730682	0.0000000000	-0.0000000105	nan	0.0000000181	nan
49731.8255901337	0.0000000000	-0.0000000102	nan	0.0000000174	nan
50078.6635875702	0.0000000000	-0.0000000098	nan	0.0000000167	nan
50425.1251220703	0.0000000000	-0.0000000096	nan	0.0000000161	nan
50771.0855007172	0.0000000000	-0.0000000093	nan	0.0000000156	nan
51118.0791854858	0.0000000000	-0.0000000091	nan	0.0000000151	nan
51465.1064872742	0.0000000000	-0.0000000089	nan	0.0000000147	nan
51811.3727569580	0.0000000000	-0.0000000088	nan	0.0000000143	nan
52157.2000980377	0.0000000000	-0.0000000086	nan	0.0000000139	nan
52503.6330223083	0.0000000000	-0.0000000085	nan	0.0000000135	nan
52850.0280380249	0.0000000000	-0.0000000083	nan	0.0000000132	nan
53197.1518993378	0.0000000000	-0.0000000082	nan	0.0000000129	nan
53544.5995330811	0.0000000000	-0.0000000080	nan	0.0000000126	nan
53891.1523818970	0.0000000000	-0.0000000080	nan	0.0000000124	nan
54238.0771636963	0.0000000000	-0.0000000079	nan	0.0000000121	nan
54584.1116905212	0.0000000000	-0.0000000078	nan	0.0000000119	nan
54930.6192398071	0.0000000000	-0.0000000077	nan	0.0000000117	nan
55276.7825126648	0.0000000000	-0.0000000076	nan	0.0000000115	nan
55623.3100891113	0.0000000000	-0.0000000075	nan	0.0000000113	nan
55970.2370166779	0.0000000000	-0.0000000075	nan	0.0000000111	nan
56317.1393871307	0.0000000000	-0.0000000074	nan	0.0000000109	nan
56663.9449596405	0.0000000000	-0.0000000074	nan	0.0000000108	nan
57009.8760128021	0.0000000000	-0.0000000073	nan	0.0000000106	nan
57356.0960292816	0.0000000000	-0.0000000072	nan	0.0000000105	nan
57704.6029567719	0.0000000000	-0.0000000072	nan	0.0000000104	nan
58050.5411624908	0.0000000000	-0.0000000072	nan	0.0000000102	nan
58396.9016075134	0.0000000000	-0.0000000071	nan	0.0000000101	nan
58743.5786724091	0.0000000000	-0.0000000071	nan	0.0000000100	nan
59089.6129608154	0.0000000000	-0.0000000071	nan	0.0000000099	nan
59436.3698959351	0.0000000000	-0.0000000070	nan	0.0000000098	nan
59782.7079296112	0.0000000000	-0.0000000070	nan	0.0000000097	nan
60129.8856735229	0.0000000000	-0.0000000069	nan	0.0000000096	nan
60959.5177173615	-0.8000000000	-0.0000000069	nan	0.0000000095	nan
61305.1056861877	-0.8000000000	-0.0000000069	nan	0.0000000094	nan
61649.3170261383	-0.8000000000	-0.0000000069	nan	0.0000000094	nan
61998.5723495483	-0.8000000000	0.0000000505	nan	-0.0000000911	nan
62346.7981815338	-0.8000000000	-0.0000000673	nan	-0.0000000853	nan
62695.8520412445	-0.8000000000	-0.0000002890	nan	-0.0000001051	nan
63169.0332889557	-0.8000000000	-0.0000013968	nan	-0.0000001523	nan
63515.5701637268	-0.8000000000	-0.0000033087	nan	-0.0000002045	nan
63862.0965480804	-0.8000000000	-0.0000065302	nan	-0.0000002733	nan
64328.7405967712	-0.8000000000	-0.0000137904	nan	-0.0000003778	nan
64673.5999584198	-0.8000000000	-0.0000209390	nan	-0.0000004461	nan
65019.6247100830	-0.8000000000	-0.0000297533	nan	-0.0000005069	nan
65365.5979633331	-0.8000000000	-0.0000404247	nan	-0.0000005552	nan
65711.0598087311	-0.8000000000	-0.0000525297	nan	-0.0000005633	nan
66055.7701587677	-0.8000000000	-0.0000661684	nan	-0.0000005316	nan
66402.0421504974	-0.8000000000	-0.0000809959	nan	-0.0000004640	nan
66747.7495670319	-0.8000000000	-0.0000968915	nan	-0.0000003793	nan
67208.5161209106	-0.8000000000	-0.0001210110	nan	-0.0000002760	nan
67554.0530681610	-0.8000000000	-0.0001373472	nan	-0.0000002283	nan
67899.0600109100	-0.8000000000	-0.0001545114	nan	-0.0000001933	nan
68252.0534992218	-0.8000000000	-0.0001712102	nan	-0.0000001683	nan
68605.0536632538	-0.8000000000	-0.0001880639	nan	-0.0000001488	nan
68950.2613544464	-0.8000000000	-0.0002052611	nan	-0.0000001334	nan
69303.2207489014	-0.8000000000	-0.0002215867	nan	-0.0000001231	nan
69648.3020782471	-0.8000000000	-0.0002387687	nan	-0.0000001136	nan
70001.0607242584	-0.8000000000	-0.0002549222	nan	-0.0000001054	nan
70346.5652465820	-0.8000000000	-0.0002710770	nan	-0.0000000985	nan
70692.5134658813	-0.8000000000	-0.0002867319	nan	-0.0000000927	nan
71037.7378463745	-0.8000000000	-0.0003018566	nan	-0.0000000890	nan
71390.7065391541	-0.8000000000	-0.0003166798	nan	-0.0000000829	nan
71736.0622882843	-0.8000000000	-0.0003315197	nan	-0.0000000793	nan
72081.5184116364	-0.8000000000	-0.0003449517	nan	-0.0000000742	nan
72434.9236488342	-0.8000000000	-0.0003583677	nan	-0.0000000721	nan
72780.9219360352	-0.8000000000	-0.0003720957	nan	-0.0000000687	nan
73127.1331310272	-0.8000000000	-0.0003847746	nan	-0.0000000648	nan
73472.1217155457	-0.8000000000	-0.0003965174	nan	-0.0000000622	nan
73818.2003498077	-0.8000000000	-0.0004088211	nan	-0.0000000606	nan
74171.1850166321	-0.8000000000	-0.0004205286	nan	-0.0000000580	nan
74523.8969326019	-0.8000000000	-0.0004318401	nan	-0.0000000560	nan
74868.9429759979	-0.8000000000	-0.0004418957	nan	-0.0000000532	nan
75214.5888805389	-0.8000000000	-0.0004522128	nan	-0.0000000527	nan
75559.5436096191	-0.8000000000	-0.0004618106	nan	-0.0000000500	nan
75905.9360027313	-0.8000000000	-0.0004715090	nan	-0.0000000488	nan
76252.1803379059	-0.8000000000	-0.0004804566	nan	-0.0000000475	nan
76597.2392559052	-0.8000000000	-0.0004890808	nan	-0.0000000456	nan
76950.6304264069	-0.8000000000	-0.0004974905	nan	-0.0000000446	nan
77303.4675121307	-0.8000000000	-0.0005059043	nan	-0.0000000428	nan
77648.7975120544	-0.8000000000	-0.0005133331	nan	-0.0000000412	nan
78001.8088817596	-0.8000000000	-0.0005208190	nan	-0.0000000407	nan
78346.5938568115	-0.8000000000	-0.0005280988	nan	-0.0000000395	nan
78691.7784214020	-0.8000000000	-0.0005354307	nan	-0.0000000385	nan
79045.1679229736	-0.8000000000	-0.0005412673	nan	-0.0000000379	nan
79398.1356620789	-0.8000000000	-0.0005478226	nan	-0.0000000372	nan
79743.0942058563	-0.8000000000	-0.0005536399	nan	-0.0000000368	nan
80095.6687927246	-0.8000000000	-0.0005595338	nan	-0.0000000352	nan
80440.5822753906	-0.8000000000	-0.0005648304	nan	-0.0000000342	nan
80793.6594486237	-0.8000000000	-0.0005702582	nan	-0.0000000347	nan
81139.0409469604	-0.8000000000	-0.0005755772	nan	-0.0000000340	nan
81484.3997955322	-0.8000000000	-0.0005801084	nan	-0.0000000321	nan
81829.2901515961	-0.8000000000	-0.0005851604	nan	-0.0000000310	nan
82182.6446056366	-0.8000000000	-0.0005900334	nan	-0.0000000314	nan
82528.8479328156	-0.8000000000	-0.0005941543	nan	-0.0000000306	nan
82874.0332126617	-0.8000000000	-0.0005979346	nan	-0.0000000311	nan
83219.6416854858	-0.8000000000	-0.0006029662	nan	-0.0000000307	nan
83572.7813243866	-0.8000000000	-0.0006070790	nan	-0.0000000287	nan
83926.0458946228	-0.8000000000	-0.0006105591	nan	-0.0000000289	nan
84271.9290256500	-0.8000000000	-0.0006139515	nan	-0.0000000284	nan
84618.2029247284	-0.8000000000	-0.0006179250	nan	-0.0000000278	nan
84963.6836051941	-0.8000000000	-0.0006208018	nan	-0.0000000278	nan
85317.2681331635	-0.8000000000	-0.0006242607	nan	-0.0000000270	nan
85670.7944869995	-0.8000000000	-0.0006271671	nan	-0.0000000275	nan
86023.9052772522	-0.8000000000	-0.0006303355	nan	-0.0000000267	nan
86368.6690330505	-0.8000000000	-0.0006331785	nan	-0.0000000266	nan
86713.7842178345	-0.8000000000	-0.0006353022	nan	-0.0000000263	nan
87060.0824356079	-0.8000000000	-0.0006381675	nan	-0.0000000256	nan
87405.0507545471	-0.8000000000	-0.0006409853	nan	-0.0000000255	nan
87758.8934898376	-0.8000000000	-0.0006432478	nan	-0.0000000256	nan
88104.7029495239	-0.8000000000	-0.0006460450	nan	-0.0000000250	nan
88450.0241279602	-0.8000000000	-0.0006483883	nan	-0.0000000244	nan
88796.4131832123	-0.8000000000	-0.0006506005	nan	-0.0000000248	nan
89141.4675712585	-0.8000000000	-0.0006522829	nan	-0.0000000237	nan
89487.6620769501	-0.8000000000	-0.0006544237	nan	-0.0000000238	nan
89832.4236869812	-0.8000000000	-0.0006563498	nan	-0.0000000240	nan
90177.7496337891	-0.8000000000	-0.0006580173	nan	-0.0000000242	nan
90529.7882556915	-0.8000000000	-0.0006603223	nan	-0.0000000241	nan
90884.1929435730	-0.8000000000	-0.0006615539	nan	-0.0000000233	nan
91229.5374870300	-0.8000000000	-0.0006633709	nan	-0.0000000228	nan
91582.4069976807	-0.8000000000	-0.0006653586	nan	-0.0000000230	nan
91927.2680282593	-0.8000000000	-0.0006673357	nan	-0.0000000233	nan
92280.5910110474	-0.8000000000	-0.0006684298	nan	-0.0000000232	nan
92627.2828578949	-0.8000000000	-0.0006697162	nan	-0.0000000226	nan
92982.4275970459	-0.8000000000	-0.0006711676	nan	-0.0000000227	nan
93327.5253772736	-0.8000000000	-0.0006718773	nan	-0.0000000227	nan
93680.5634498596	-0.8000000000	-0.0006737204	nan	-0.0000000218	nan
94025.7689952850	-0.8000000000	-0.0006753521	nan	-0.0000000217	nan
94370.7952499390	-0.8000000000	-0.0006759535	nan	-0.0000000214	nan
94715.8863544464	-0.8000000000	-0.0006773606	nan	-0.0000000211	nan
95060.5404376984	-0.8000000000	-0.0006789674	nan	-0.0000000216	nan
95405.9915542603	-0.8000000000	-0.0006799559	nan	-0.0000000224	nan
95759.2380046844	-0.8000000000	-0.0006810474	nan	-0.0000000218	nan
96105.1268577576	-0.8000000000	-0.0006820313	nan	-0.0000000214	nan
96451.6725540161	-0.8000000000	-0.0006827149	nan	-0.0000000202	nan
96804.9519062042	-0.8000000000	-0.0006840747	nan	-0.0000000211	nan
97150.4786014557	-0.8000000000	-0.0006842432	nan	-0.0000000213	nan
97495.3999519348	-0.8000000000	-0.0006850202	nan	-0.0000000206	nan
97841.0649299622	-0.8000000000	-0.0006860936	nan	-0.0000000207	nan
98194.7240829468	-0.8000000000	-0.0006872239	nan	-0.0000000208	nan
98548.4972000122	-0.8000000000	-0.0006879162	nan	-0.0000000211	nan
98894.5777416229	-0.8000000000	-0.0006887748	nan	-0.0000000206	nan
99248.1184005737	-0.8000000000	-0.0006897154	nan	-0.0000000204	nan
99592.8502082825	-0.8000000000	-0.0006908923	nan	-0.0000000199	nan
99946.0551738739	-0.8000000000	-0.0006905921	nan	-0.0000000207	nan
100291.7666435242	-0.8000000000	-0.0006913361	nan	-0.0000000199	nan
100636.9194984436	-0.8000000000	-0.0006921035	nan	-0.0000000196	nan
100990.3016090393	-0.8000000000	-0.0006924573	nan	-0.0000000194	nan
101459.8271846771	0.0000000000	-0.0006667648	nan	0.0000031287	nan
101810.0609779358	0.0000000000	-0.0001988690	nan	0.0000012917	nan
102285.4309082031	0.0000000000	-0.0000418482	nan	0.0000006106	nan
102696.5045928955	0.0000000000	-0.0000078443	nan	0.0000003487	nan
103041.4178371429	0.0000000000	-0.0000027776	nan	0.0000002322	nan
103387.0656490326	0.0000000000	-0.0000011303	nan	0.0000001647	nan
103802.7658462524	0.0000000000	-0.0000004573	nan	0.0000001170	nan
104149.1100788116	0.0000000000	-0.0000002414	nan	0.0000000923	nan
104495.8446025848	0.0000000000	-0.0000001424	nan	0.0000000755	nan
104842.3345088959	0.0000000000	-0.0000000915	nan	0.0000000634	nan
105188.8680458069	0.0000000000	-0.0000000628	nan	0.0000000544	nan
105535.4404449463	0.0000000000	-0.0000000459	nan	0.0000000476	nan
105881.5047740936	0.0000000000	-0.0000000356	nan	0.0000000422	nan
